Freq.	V(vo)
1.00000000000000e+000	(3.51341522632728e+001,1.79996658718521e+002)
1.00230523807790e+000	(3.51341522632059e+001,1.79996651016071e+002)
1.00461579027840e+000	(3.51341522631387e+001,1.79996643295866e+002)
1.00693166885180e+000	(3.51341522630712e+001,1.79996635557864e+002)
1.00925288607668e+000	(3.51341522630034e+001,1.79996627802024e+002)
1.01157945425990e+000	(3.51341522629353e+001,1.79996620028305e+002)
1.01391138573668e+000	(3.51341522628669e+001,1.79996612236665e+002)
1.01624869287070e+000	(3.51341522627981e+001,1.79996604427064e+002)
1.01859138805412e+000	(3.51341522627291e+001,1.79996596599460e+002)
1.02093948370768e+000	(3.51341522626597e+001,1.79996588753812e+002)
1.02329299228075e+000	(3.51341522625900e+001,1.79996580890077e+002)
1.02565192625141e+000	(3.51341522625200e+001,1.79996573008215e+002)
1.02801629812647e+000	(3.51341522624496e+001,1.79996565108183e+002)
1.03038612044162e+000	(3.51341522623790e+001,1.79996557189939e+002)
1.03276140576140e+000	(3.51341522623080e+001,1.79996549253443e+002)
1.03514216667934e+000	(3.51341522622366e+001,1.79996541298650e+002)
1.03752841581801e+000	(3.51341522621650e+001,1.79996533325520e+002)
1.03992016582906e+000	(3.51341522620930e+001,1.79996525334010e+002)
1.04231742939330e+000	(3.51341522620207e+001,1.79996517324078e+002)
1.04472021922080e+000	(3.51341522619480e+001,1.79996509295681e+002)
1.04712854805090e+000	(3.51341522618750e+001,1.79996501248776e+002)
1.04954242865232e+000	(3.51341522618017e+001,1.79996493183322e+002)
1.05196187382322e+000	(3.51341522617280e+001,1.79996485099274e+002)
1.05438689639126e+000	(3.51341522616540e+001,1.79996476996591e+002)
1.05681750921366e+000	(3.51341522615797e+001,1.79996468875230e+002)
1.05925372517729e+000	(3.51341522615050e+001,1.79996460735147e+002)
1.06169555719872e+000	(3.51341522614300e+001,1.79996452576299e+002)
1.06414301822431e+000	(3.51341522613546e+001,1.79996444398642e+002)
1.06659612123026e+000	(3.51341522612789e+001,1.79996436202135e+002)
1.06905487922266e+000	(3.51341522612028e+001,1.79996427986732e+002)
1.07151930523761e+000	(3.51341522611264e+001,1.79996419752391e+002)
1.07398941234124e+000	(3.51341522610496e+001,1.79996411499068e+002)
1.07646521362983e+000	(3.51341522609724e+001,1.79996403226719e+002)
1.07894672222983e+000	(3.51341522608950e+001,1.79996394935300e+002)
1.08143395129794e+000	(3.51341522608171e+001,1.79996386624768e+002)
1.08392691402120e+000	(3.51341522607389e+001,1.79996378295078e+002)
1.08642562361706e+000	(3.51341522606603e+001,1.79996369946186e+002)
1.08893009333343e+000	(3.51341522605814e+001,1.79996361578048e+002)
1.09144033644876e+000	(3.51341522605021e+001,1.79996353190619e+002)
1.09395636627209e+000	(3.51341522604224e+001,1.79996344783855e+002)
1.09647819614318e+000	(3.51341522603424e+001,1.79996336357712e+002)
1.09900583943252e+000	(3.51341522602620e+001,1.79996327912144e+002)
1.10153930954141e+000	(3.51341522601812e+001,1.79996319447107e+002)
1.10407861990207e+000	(3.51341522601001e+001,1.79996310962556e+002)
1.10662378397766e+000	(3.51341522600186e+001,1.79996302458447e+002)
1.10917481526240e+000	(3.51341522599367e+001,1.79996293934733e+002)
1.11173172728159e+000	(3.51341522598544e+001,1.79996285391371e+002)
1.11429453359173e+000	(3.51341522597718e+001,1.79996276828313e+002)
1.11686324778056e+000	(3.51341522596887e+001,1.79996268245516e+002)
1.11943788346715e+000	(3.51341522596053e+001,1.79996259642934e+002)
1.12201845430196e+000	(3.51341522595215e+001,1.79996251020520e+002)
1.12460497396692e+000	(3.51341522594373e+001,1.79996242378230e+002)
1.12719745617551e+000	(3.51341522593528e+001,1.79996233716017e+002)
1.12979591467280e+000	(3.51341522592678e+001,1.79996225033836e+002)
1.13240036323556e+000	(3.51341522591824e+001,1.79996216331640e+002)
1.13501081567231e+000	(3.51341522590967e+001,1.79996207609384e+002)
1.13762728582343e+000	(3.51341522590105e+001,1.79996198867021e+002)
1.14024978756117e+000	(3.51341522589240e+001,1.79996190104504e+002)
1.14287833478977e+000	(3.51341522588370e+001,1.79996181321788e+002)
1.14551294144553e+000	(3.51341522587497e+001,1.79996172518826e+002)
1.14815362149688e+000	(3.51341522586619e+001,1.79996163695570e+002)
1.15080038894443e+000	(3.51341522585738e+001,1.79996154851975e+002)
1.15345325782109e+000	(3.51341522584852e+001,1.79996145987994e+002)
1.15611224219210e+000	(3.51341522583962e+001,1.79996137103579e+002)
1.15877735615512e+000	(3.51341522583069e+001,1.79996128198683e+002)
1.16144861384034e+000	(3.51341522582171e+001,1.79996119273259e+002)
1.16412602941049e+000	(3.51341522581269e+001,1.79996110327260e+002)
1.16680961706096e+000	(3.51341522580362e+001,1.79996101360638e+002)
1.16949939101987e+000	(3.51341522579452e+001,1.79996092373346e+002)
1.17219536554813e+000	(3.51341522578537e+001,1.79996083365337e+002)
1.17489755493953e+000	(3.51341522577618e+001,1.79996074336561e+002)
1.17760597352080e+000	(3.51341522576695e+001,1.79996065286972e+002)
1.18032063565173e+000	(3.51341522575768e+001,1.79996056216522e+002)
1.18304155572516e+000	(3.51341522574836e+001,1.79996047125162e+002)
1.18576874816716e+000	(3.51341522573900e+001,1.79996038012845e+002)
1.18850222743702e+000	(3.51341522572960e+001,1.79996028879521e+002)
1.19124200802737e+000	(3.51341522572015e+001,1.79996019725143e+002)
1.19398810446427e+000	(3.51341522571067e+001,1.79996010549662e+002)
1.19674053130724e+000	(3.51341522570113e+001,1.79996001353029e+002)
1.19949930314938e+000	(3.51341522569155e+001,1.79995992135196e+002)
1.20226443461741e+000	(3.51341522568193e+001,1.79995982896113e+002)
1.20503594037179e+000	(3.51341522567227e+001,1.79995973635733e+002)
1.20781383510678e+000	(3.51341522566256e+001,1.79995964354004e+002)
1.21059813355048e+000	(3.51341522565280e+001,1.79995955050880e+002)
1.21338885046497e+000	(3.51341522564300e+001,1.79995945726309e+002)
1.21618600064636e+000	(3.51341522563315e+001,1.79995936380243e+002)
1.21898959892486e+000	(3.51341522562326e+001,1.79995927012632e+002)
1.22179966016487e+000	(3.51341522561333e+001,1.79995917623426e+002)
1.22461619926504e+000	(3.51341522560334e+001,1.79995908212576e+002)
1.22743923115840e+000	(3.51341522559331e+001,1.79995898780032e+002)
1.23026877081238e+000	(3.51341522558324e+001,1.79995889325744e+002)
1.23310483322890e+000	(3.51341522557312e+001,1.79995879849661e+002)
1.23594743344451e+000	(3.51341522556295e+001,1.79995870351734e+002)
1.23879658653036e+000	(3.51341522555273e+001,1.79995860831911e+002)
1.24165230759241e+000	(3.51341522554247e+001,1.79995851290143e+002)
1.24451461177138e+000	(3.51341522553216e+001,1.79995841726379e+002)
1.24738351424294e+000	(3.51341522552180e+001,1.79995832140569e+002)
1.25025903021771e+000	(3.51341522551140e+001,1.79995822532661e+002)
1.25314117494141e+000	(3.51341522550095e+001,1.79995812902604e+002)
1.25602996369487e+000	(3.51341522549044e+001,1.79995803250347e+002)
1.25892541179416e+000	(3.51341522547989e+001,1.79995793575840e+002)
1.26182753459066e+000	(3.51341522546930e+001,1.79995783879031e+002)
1.26473634747115e+000	(3.51341522545865e+001,1.79995774159869e+002)
1.26765186585784e+000	(3.51341522544795e+001,1.79995764418301e+002)
1.27057410520854e+000	(3.51341522543721e+001,1.79995754654277e+002)
1.27350308101666e+000	(3.51341522542641e+001,1.79995744867744e+002)
1.27643880881134e+000	(3.51341522541556e+001,1.79995735058652e+002)
1.27938130415752e+000	(3.51341522540467e+001,1.79995725226946e+002)
1.28233058265602e+000	(3.51341522539372e+001,1.79995715372577e+002)
1.28528665994361e+000	(3.51341522538273e+001,1.79995705495491e+002)
1.28824955169313e+000	(3.51341522537168e+001,1.79995695595635e+002)
1.29121927361353e+000	(3.51341522536058e+001,1.79995685672959e+002)
1.29419584144998e+000	(3.51341522534943e+001,1.79995675727408e+002)
1.29717927098395e+000	(3.51341522533823e+001,1.79995665758930e+002)
1.30016957803328e+000	(3.51341522532698e+001,1.79995655767472e+002)
1.30316677845229e+000	(3.51341522531567e+001,1.79995645752982e+002)
1.30617088813183e+000	(3.51341522530432e+001,1.79995635715406e+002)
1.30918192299940e+000	(3.51341522529291e+001,1.79995625654691e+002)
1.31219989901920e+000	(3.51341522528145e+001,1.79995615570784e+002)
1.31522483219223e+000	(3.51341522526993e+001,1.79995605463631e+002)
1.31825673855640e+000	(3.51341522525836e+001,1.79995595333178e+002)
1.32129563418657e+000	(3.51341522524674e+001,1.79995585179372e+002)
1.32434153519466e+000	(3.51341522523507e+001,1.79995575002160e+002)
1.32739445772973e+000	(3.51341522522334e+001,1.79995564801486e+002)
1.33045441797808e+000	(3.51341522521156e+001,1.79995554577298e+002)
1.33352143216332e+000	(3.51341522519972e+001,1.79995544329540e+002)
1.33659551654643e+000	(3.51341522518783e+001,1.79995534058159e+002)
1.33967668742593e+000	(3.51341522517588e+001,1.79995523763100e+002)
1.34276496113786e+000	(3.51341522516388e+001,1.79995513444308e+002)
1.34586035405594e+000	(3.51341522515182e+001,1.79995503101729e+002)
1.34896288259164e+000	(3.51341522513971e+001,1.79995492735308e+002)
1.35207256319427e+000	(3.51341522512754e+001,1.79995482344990e+002)
1.35518941235103e+000	(3.51341522511532e+001,1.79995471930720e+002)
1.35831344658715e+000	(3.51341522510303e+001,1.79995461492442e+002)
1.36144468246594e+000	(3.51341522509070e+001,1.79995451030102e+002)
1.36458313658892e+000	(3.51341522507830e+001,1.79995440543643e+002)
1.36772882559584e+000	(3.51341522506585e+001,1.79995430033011e+002)
1.37088176616484e+000	(3.51341522505334e+001,1.79995419498149e+002)
1.37404197501251e+000	(3.51341522504077e+001,1.79995408939002e+002)
1.37720946889394e+000	(3.51341522502814e+001,1.79995398355513e+002)
1.38038426460288e+000	(3.51341522501546e+001,1.79995387747627e+002)
1.38356637897177e+000	(3.51341522500272e+001,1.79995377115287e+002)
1.38675582887188e+000	(3.51341522498992e+001,1.79995366458437e+002)
1.38995263121334e+000	(3.51341522497706e+001,1.79995355777021e+002)
1.39315680294529e+000	(3.51341522496414e+001,1.79995345070981e+002)
1.39636836105593e+000	(3.51341522495116e+001,1.79995334340262e+002)
1.39958732257261e+000	(3.51341522493812e+001,1.79995323584805e+002)
1.40281370456195e+000	(3.51341522492502e+001,1.79995312804555e+002)
1.40604752412990e+000	(3.51341522491186e+001,1.79995301999454e+002)
1.40928879842186e+000	(3.51341522489864e+001,1.79995291169444e+002)
1.41253754462274e+000	(3.51341522488536e+001,1.79995280314468e+002)
1.41579377995707e+000	(3.51341522487201e+001,1.79995269434470e+002)
1.41905752168908e+000	(3.51341522485861e+001,1.79995258529390e+002)
1.42232878712281e+000	(3.51341522484514e+001,1.79995247599171e+002)
1.42560759360218e+000	(3.51341522483162e+001,1.79995236643756e+002)
1.42889395851109e+000	(3.51341522481803e+001,1.79995225663086e+002)
1.43218789927353e+000	(3.51341522480437e+001,1.79995214657103e+002)
1.43548943335364e+000	(3.51341522479065e+001,1.79995203625748e+002)
1.43879857825583e+000	(3.51341522477687e+001,1.79995192568964e+002)
1.44211535152486e+000	(3.51341522476303e+001,1.79995181486691e+002)
1.44543977074592e+000	(3.51341522474912e+001,1.79995170378870e+002)
1.44877185354475e+000	(3.51341522473515e+001,1.79995159245444e+002)
1.45211161758773e+000	(3.51341522472111e+001,1.79995148086352e+002)
1.45545908058195e+000	(3.51341522470701e+001,1.79995136901536e+002)
1.45881426027534e+000	(3.51341522469285e+001,1.79995125690936e+002)
1.46217717445671e+000	(3.51341522467862e+001,1.79995114454494e+002)
1.46554784095590e+000	(3.51341522466432e+001,1.79995103192148e+002)
1.46892627764385e+000	(3.51341522464996e+001,1.79995091903840e+002)
1.47231250243271e+000	(3.51341522463553e+001,1.79995080589510e+002)
1.47570653327588e+000	(3.51341522462103e+001,1.79995069249098e+002)
1.47910838816819e+000	(3.51341522460647e+001,1.79995057882543e+002)
1.48251808514594e+000	(3.51341522459184e+001,1.79995046489786e+002)
1.48593564228699e+000	(3.51341522457714e+001,1.79995035070766e+002)
1.48936107771090e+000	(3.51341522456237e+001,1.79995023625422e+002)
1.49279440957898e+000	(3.51341522454754e+001,1.79995012153694e+002)
1.49623565609442e+000	(3.51341522453264e+001,1.79995000655520e+002)
1.49968483550236e+000	(3.51341522451767e+001,1.79994989130841e+002)
1.50314196609001e+000	(3.51341522450263e+001,1.79994977579595e+002)
1.50660706618673e+000	(3.51341522448752e+001,1.79994966001720e+002)
1.51008015416413e+000	(3.51341522447234e+001,1.79994954397156e+002)
1.51356124843619e+000	(3.51341522445709e+001,1.79994942765840e+002)
1.51705036745932e+000	(3.51341522444177e+001,1.79994931107711e+002)
1.52054752973248e+000	(3.51341522442638e+001,1.79994919422708e+002)
1.52405275379728e+000	(3.51341522441092e+001,1.79994907710768e+002)
1.52756605823806e+000	(3.51341522439539e+001,1.79994895971829e+002)
1.53108746168202e+000	(3.51341522437978e+001,1.79994884205829e+002)
1.53461698279928e+000	(3.51341522436410e+001,1.79994872412705e+002)
1.53815464030302e+000	(3.51341522434835e+001,1.79994860592396e+002)
1.54170045294954e+000	(3.51341522433253e+001,1.79994848744838e+002)
1.54525443953840e+000	(3.51341522431664e+001,1.79994836869968e+002)
1.54881661891247e+000	(3.51341522430067e+001,1.79994824967724e+002)
1.55238700995807e+000	(3.51341522428463e+001,1.79994813038043e+002)
1.55596563160506e+000	(3.51341522426851e+001,1.79994801080861e+002)
1.55955250282694e+000	(3.51341522425232e+001,1.79994789096114e+002)
1.56314764264094e+000	(3.51341522423606e+001,1.79994777083741e+002)
1.56675107010813e+000	(3.51341522421972e+001,1.79994765043675e+002)
1.57036280433354e+000	(3.51341522420330e+001,1.79994752975855e+002)
1.57398286446620e+000	(3.51341522418681e+001,1.79994740880215e+002)
1.57761126969933e+000	(3.51341522417025e+001,1.79994728756692e+002)
1.58124803927037e+000	(3.51341522415360e+001,1.79994716605221e+002)
1.58489319246110e+000	(3.51341522413688e+001,1.79994704425738e+002)
1.58854674859776e+000	(3.51341522412008e+001,1.79994692218179e+002)
1.59220872705115e+000	(3.51341522410321e+001,1.79994679982478e+002)
1.59587914723672e+000	(3.51341522408625e+001,1.79994667718571e+002)
1.59955802861465e+000	(3.51341522406922e+001,1.79994655426393e+002)
1.60324539069002e+000	(3.51341522405211e+001,1.79994643105879e+002)
1.60694125301286e+000	(3.51341522403492e+001,1.79994630756962e+002)
1.61064563517825e+000	(3.51341522401766e+001,1.79994618379579e+002)
1.61435855682647e+000	(3.51341522400031e+001,1.79994605973663e+002)
1.61808003764305e+000	(3.51341522398288e+001,1.79994593539148e+002)
1.62181009735891e+000	(3.51341522396537e+001,1.79994581075968e+002)
1.62554875575047e+000	(3.51341522394778e+001,1.79994568584058e+002)
1.62929603263970e+000	(3.51341522393011e+001,1.79994556063352e+002)
1.63305194789432e+000	(3.51341522391236e+001,1.79994543513782e+002)
1.63681652142779e+000	(3.51341522389453e+001,1.79994530935282e+002)
1.64058977319952e+000	(3.51341522387661e+001,1.79994518327786e+002)
1.64437172321491e+000	(3.51341522385861e+001,1.79994505691226e+002)
1.64816239152549e+000	(3.51341522384053e+001,1.79994493025537e+002)
1.65196179822900e+000	(3.51341522382236e+001,1.79994480330650e+002)
1.65576996346951e+000	(3.51341522380411e+001,1.79994467606498e+002)
1.65958690743754e+000	(3.51341522378578e+001,1.79994454853014e+002)
1.66341265037015e+000	(3.51341522376736e+001,1.79994442070130e+002)
1.66724721255104e+000	(3.51341522374886e+001,1.79994429257778e+002)
1.67109061431069e+000	(3.51341522373027e+001,1.79994416415891e+002)
1.67494287602642e+000	(3.51341522371159e+001,1.79994403544401e+002)
1.67880401812254e+000	(3.51341522369283e+001,1.79994390643238e+002)
1.68267406107045e+000	(3.51341522367399e+001,1.79994377712335e+002)
1.68655302538872e+000	(3.51341522365505e+001,1.79994364751624e+002)
1.69044093164324e+000	(3.51341522363603e+001,1.79994351761035e+002)
1.69433780044731e+000	(3.51341522361692e+001,1.79994338740499e+002)
1.69824365246172e+000	(3.51341522359772e+001,1.79994325689948e+002)
1.70215850839493e+000	(3.51341522357844e+001,1.79994312609313e+002)
1.70608238900310e+000	(3.51341522355906e+001,1.79994299498523e+002)
1.71001531509027e+000	(3.51341522353960e+001,1.79994286357510e+002)
1.71395730750840e+000	(3.51341522352004e+001,1.79994273186204e+002)
1.71790838715757e+000	(3.51341522350040e+001,1.79994259984535e+002)
1.72186857498599e+000	(3.51341522348066e+001,1.79994246752433e+002)
1.72583789199018e+000	(3.51341522346083e+001,1.79994233489828e+002)
1.72981635921508e+000	(3.51341522344092e+001,1.79994220196649e+002)
1.73380399775412e+000	(3.51341522342091e+001,1.79994206872826e+002)
1.73780082874935e+000	(3.51341522340080e+001,1.79994193518289e+002)
1.74180687339159e+000	(3.51341522338061e+001,1.79994180132966e+002)
1.74582215292048e+000	(3.51341522336032e+001,1.79994166716787e+002)
1.74984668862464e+000	(3.51341522333994e+001,1.79994153269681e+002)
1.75388050184174e+000	(3.51341522331946e+001,1.79994139791576e+002)
1.75792361395867e+000	(3.51341522329889e+001,1.79994126282400e+002)
1.76197604641161e+000	(3.51341522327822e+001,1.79994112742083e+002)
1.76603782068614e+000	(3.51341522325746e+001,1.79994099170552e+002)
1.77010895831740e+000	(3.51341522323661e+001,1.79994085567735e+002)
1.77418948089014e+000	(3.51341522321565e+001,1.79994071933561e+002)
1.77827941003890e+000	(3.51341522319460e+001,1.79994058267956e+002)
1.78237876744807e+000	(3.51341522317346e+001,1.79994044570849e+002)
1.78648757485203e+000	(3.51341522315221e+001,1.79994030842167e+002)
1.79060585403527e+000	(3.51341522313087e+001,1.79994017081838e+002)
1.79473362683250e+000	(3.51341522310943e+001,1.79994003289787e+002)
1.79887091512876e+000	(3.51341522308789e+001,1.79993989465942e+002)
1.80301774085955e+000	(3.51341522306625e+001,1.79993975610231e+002)
1.80717412601090e+000	(3.51341522304451e+001,1.79993961722578e+002)
1.81134009261958e+000	(3.51341522302267e+001,1.79993947802911e+002)
1.81551566277311e+000	(3.51341522300073e+001,1.79993933851156e+002)
1.81970085860996e+000	(3.51341522297869e+001,1.79993919867239e+002)
1.82389570231961e+000	(3.51341522295654e+001,1.79993905851085e+002)
1.82810021614272e+000	(3.51341522293430e+001,1.79993891802621e+002)
1.83231442237119e+000	(3.51341522291195e+001,1.79993877721772e+002)
1.83653834334832e+000	(3.51341522288950e+001,1.79993863608463e+002)
1.84077200146893e+000	(3.51341522286694e+001,1.79993849462620e+002)
1.84501541917945e+000	(3.51341522284428e+001,1.79993835284167e+002)
1.84926861897805e+000	(3.51341522282152e+001,1.79993821073030e+002)
1.85353162341479e+000	(3.51341522279865e+001,1.79993806829132e+002)
1.85780445509167e+000	(3.51341522277567e+001,1.79993792552399e+002)
1.86208713666284e+000	(3.51341522275259e+001,1.79993778242754e+002)
1.86637969083464e+000	(3.51341522272941e+001,1.79993763900123e+002)
1.87068214036577e+000	(3.51341522270611e+001,1.79993749524428e+002)
1.87499450806739e+000	(3.51341522268271e+001,1.79993735115594e+002)
1.87931681680324e+000	(3.51341522265920e+001,1.79993720673544e+002)
1.88364908948977e+000	(3.51341522263558e+001,1.79993706198201e+002)
1.88799134909627e+000	(3.51341522261185e+001,1.79993691689490e+002)
1.89234361864495e+000	(3.51341522258802e+001,1.79993677147332e+002)
1.89670592121112e+000	(3.51341522256407e+001,1.79993662571652e+002)
1.90107827992327e+000	(3.51341522254001e+001,1.79993647962371e+002)
1.90546071796322e+000	(3.51341522251584e+001,1.79993633319412e+002)
1.90985325856621e+000	(3.51341522249156e+001,1.79993618642698e+002)
1.91425592502106e+000	(3.51341522246717e+001,1.79993603932150e+002)
1.91866874067026e+000	(3.51341522244267e+001,1.79993589187691e+002)
1.92309172891013e+000	(3.51341522241805e+001,1.79993574409242e+002)
1.92752491319091e+000	(3.51341522239332e+001,1.79993559596726e+002)
1.93196831701690e+000	(3.51341522236847e+001,1.79993544750063e+002)
1.93642196394658e+000	(3.51341522234351e+001,1.79993529869175e+002)
1.94088587759275e+000	(3.51341522231844e+001,1.79993514953983e+002)
1.94536008162263e+000	(3.51341522229325e+001,1.79993500004409e+002)
1.94984459975802e+000	(3.51341522226794e+001,1.79993485020371e+002)
1.95433945577537e+000	(3.51341522224251e+001,1.79993470001792e+002)
1.95884467350596e+000	(3.51341522221697e+001,1.79993454948592e+002)
